# vsim work.apb_top -assertdebug -sv_lib C:/questasim64_10.7c/uvm-1.1d/win64/uvm_dpi -l run.log 
# Start time: 21:12:39 on Dec 18,2024
# ** Note: (vsim-3812) Design is being optimized...
# ** Note: (vopt-143) Recognized 1 FSM in module "apb_design_n(fast)".
# Loading sv_std.std
# Loading mtiUvm.uvm_pkg
# Loading work.APB_TOP_sv_unit(fast)
# Loading work.apb_top(fast)
# Loading work.apb_if(fast)
# Loading work.APB_dut(fast)
# Loading work.apb_design_n(fast)
# Loading work.apb_asser(fast)
# Loading mtiUvm.questa_uvm_pkg(fast)
# Loading work.apb_if(fast)
# ** Warning: (vsim-3764) Stand-alone call to function 'get' treated as implicit void cast.
#    Time: 0 ns  Iteration: 0  Region: /APB_TOP_sv_unit File: APB_MON1.sv Line: 15
# ** Warning: (vsim-3764) Stand-alone call to function 'get' treated as implicit void cast.
#    Time: 0 ns  Iteration: 0  Region: /APB_TOP_sv_unit File: APB_MON2.sv Line: 15
# ** Warning: (vsim-3764) Stand-alone call to function 'get' treated as implicit void cast.
#    Time: 0 ns  Iteration: 0  Region: /APB_TOP_sv_unit::apb_drv File: APB_DRV.sv Line: 12
# Loading C:/questasim64_10.7c/uvm-1.1d/win64/uvm_dpi.dll
# ** Warning: (vsim-WLF-5000) WLF file currently in use: vsim.wlf
#           File in use by: Phaneendra M  Hostname: DESKTOP-Q5GH7JD  ProcessID: 12376
#           Attempting to use alternate WLF file "./wlft9wzk45".
# ** Warning: (vsim-WLF-5001) Could not open WLF file: vsim.wlf
#           Using alternate file: ./wlft9wzk45
# ----------------------------------------------------------------
# UVM-1.1d
# (C) 2007-2013 Mentor Graphics Corporation
# (C) 2007-2013 Cadence Design Systems, Inc.
# (C) 2006-2013 Synopsys, Inc.
# (C) 2011-2013 Cypress Semiconductor Corp.
# ----------------------------------------------------------------
# 
#   ***********       IMPORTANT RELEASE NOTES         ************
# 
#   You are using a version of the UVM library that has been compiled
#   with `UVM_NO_DEPRECATED undefined.
#   See http://www.eda.org/svdb/view.php?id=3313 for more details.
# 
#   You are using a version of the UVM library that has been compiled
#   with `UVM_OBJECT_MUST_HAVE_CONSTRUCTOR undefined.
#   See http://www.eda.org/svdb/view.php?id=3770 for more details.
# 
#       (Specify +UVM_NO_RELNOTES to turn off this notice)
# 
# UVM_INFO verilog_src/questa_uvm_pkg-1.2/src/questa_uvm_pkg.sv(215) @ 0: reporter [Questa UVM] QUESTA_UVM-1.2.3
# UVM_INFO verilog_src/questa_uvm_pkg-1.2/src/questa_uvm_pkg.sv(216) @ 0: reporter [Questa UVM]  questa_uvm::init(+struct)
# UVM_INFO @ 0: reporter [RNTST] Running test apb_test2...
# UVM_INFO APB_MON2.sv(25) @ 5: uvm_test_top.env.a2.mon2 [MON2] pready=0,prdata=0
# UVM_INFO APB_MON2.sv(25) @ 15: uvm_test_top.env.a2.mon2 [MON2] pready=0,prdata=0
# UVM_INFO APB_MON2.sv(25) @ 25: uvm_test_top.env.a2.mon2 [MON2] pready=0,prdata=0
# UVM_INFO APB_MON1.sv(39) @ 35: uvm_test_top.env.a1.mon1 [MON1] pwdata=0,paddr=0,pwrite=0
# UVM_INFO APB_SB.sv(35) @ 35: uvm_test_top.env.sb [SB MATCHED] pkt1.prdata=0,pkt2.prdata=0
# UVM_INFO APB_MON2.sv(25) @ 35: uvm_test_top.env.a2.mon2 [MON2] pready=0,prdata=0
# UVM_INFO APB_MON2.sv(25) @ 45: uvm_test_top.env.a2.mon2 [MON2] pready=1,prdata=0
# UVM_INFO APB_MON2.sv(25) @ 55: uvm_test_top.env.a2.mon2 [MON2] pready=1,prdata=0
# UVM_INFO APB_MON1.sv(39) @ 65: uvm_test_top.env.a1.mon1 [MON1] pwdata=0,paddr=0,pwrite=1
# UVM_INFO APB_SB.sv(35) @ 65: uvm_test_top.env.sb [SB MATCHED] pkt1.prdata=0,pkt2.prdata=0
# UVM_INFO APB_MON2.sv(25) @ 65: uvm_test_top.env.a2.mon2 [MON2] pready=0,prdata=0
# UVM_INFO APB_MON2.sv(25) @ 75: uvm_test_top.env.a2.mon2 [MON2] pready=0,prdata=0
# UVM_INFO APB_MON2.sv(25) @ 85: uvm_test_top.env.a2.mon2 [MON2] pready=1,prdata=0
# UVM_INFO APB_MON1.sv(39) @ 95: uvm_test_top.env.a1.mon1 [MON1] pwdata=255,paddr=255,pwrite=1
# UVM_INFO APB_SB.sv(39) @ 95: uvm_test_top.env.sb [SB MISMATCHED] pkt1.prdata=0,pkt2.prdata=255
# UVM_INFO APB_MON2.sv(25) @ 95: uvm_test_top.env.a2.mon2 [MON2] pready=1,prdata=255
# UVM_INFO APB_MON2.sv(25) @ 105: uvm_test_top.env.a2.mon2 [MON2] pready=0,prdata=255
# UVM_INFO APB_MON2.sv(25) @ 115: uvm_test_top.env.a2.mon2 [MON2] pready=0,prdata=255
# UVM_INFO APB_MON1.sv(39) @ 125: uvm_test_top.env.a1.mon1 [MON1] pwdata=254,paddr=254,pwrite=1
# UVM_INFO APB_SB.sv(39) @ 125: uvm_test_top.env.sb [SB MISMATCHED] pkt1.prdata=0,pkt2.prdata=255
# UVM_INFO APB_MON2.sv(25) @ 125: uvm_test_top.env.a2.mon2 [MON2] pready=1,prdata=255
# UVM_INFO APB_MON2.sv(25) @ 135: uvm_test_top.env.a2.mon2 [MON2] pready=1,prdata=254
# UVM_INFO APB_MON2.sv(25) @ 145: uvm_test_top.env.a2.mon2 [MON2] pready=0,prdata=254
# UVM_INFO APB_MON1.sv(39) @ 155: uvm_test_top.env.a1.mon1 [MON1] pwdata=254,paddr=254,pwrite=0
# UVM_INFO APB_SB.sv(35) @ 155: uvm_test_top.env.sb [SB MATCHED] pkt1.prdata=254,pkt2.prdata=254
# UVM_INFO APB_MON2.sv(25) @ 155: uvm_test_top.env.a2.mon2 [MON2] pready=0,prdata=254
# UVM_INFO APB_MON2.sv(25) @ 165: uvm_test_top.env.a2.mon2 [MON2] pready=1,prdata=254
# UVM_INFO APB_MON2.sv(25) @ 175: uvm_test_top.env.a2.mon2 [MON2] pready=1,prdata=253
# UVM_INFO APB_MON1.sv(39) @ 185: uvm_test_top.env.a1.mon1 [MON1] pwdata=253,paddr=253,pwrite=1
# UVM_INFO APB_SB.sv(39) @ 185: uvm_test_top.env.sb [SB MISMATCHED] pkt1.prdata=254,pkt2.prdata=253
# UVM_INFO APB_MON2.sv(25) @ 185: uvm_test_top.env.a2.mon2 [MON2] pready=0,prdata=253
# UVM_INFO APB_MON2.sv(25) @ 195: uvm_test_top.env.a2.mon2 [MON2] pready=0,prdata=253
# UVM_INFO APB_MON2.sv(25) @ 205: uvm_test_top.env.a2.mon2 [MON2] pready=1,prdata=253
# UVM_INFO APB_MON1.sv(39) @ 215: uvm_test_top.env.a1.mon1 [MON1] pwdata=252,paddr=252,pwrite=1
# UVM_INFO APB_SB.sv(39) @ 215: uvm_test_top.env.sb [SB MISMATCHED] pkt1.prdata=254,pkt2.prdata=252
# UVM_INFO APB_MON2.sv(25) @ 215: uvm_test_top.env.a2.mon2 [MON2] pready=1,prdata=252
# UVM_INFO APB_MON2.sv(25) @ 225: uvm_test_top.env.a2.mon2 [MON2] pready=0,prdata=252
# UVM_INFO APB_MON2.sv(25) @ 235: uvm_test_top.env.a2.mon2 [MON2] pready=0,prdata=252
# UVM_INFO APB_MON1.sv(39) @ 245: uvm_test_top.env.a1.mon1 [MON1] pwdata=251,paddr=251,pwrite=1
# UVM_INFO APB_SB.sv(39) @ 245: uvm_test_top.env.sb [SB MISMATCHED] pkt1.prdata=254,pkt2.prdata=252
# UVM_INFO APB_MON2.sv(25) @ 245: uvm_test_top.env.a2.mon2 [MON2] pready=1,prdata=252
# UVM_INFO APB_MON2.sv(25) @ 255: uvm_test_top.env.a2.mon2 [MON2] pready=1,prdata=251
# UVM_INFO APB_MON2.sv(25) @ 265: uvm_test_top.env.a2.mon2 [MON2] pready=0,prdata=251
# UVM_INFO APB_MON1.sv(39) @ 275: uvm_test_top.env.a1.mon1 [MON1] pwdata=251,paddr=251,pwrite=0
# UVM_INFO APB_SB.sv(35) @ 275: uvm_test_top.env.sb [SB MATCHED] pkt1.prdata=251,pkt2.prdata=251
# UVM_INFO APB_MON2.sv(25) @ 275: uvm_test_top.env.a2.mon2 [MON2] pready=0,prdata=251
# UVM_INFO APB_MON2.sv(25) @ 285: uvm_test_top.env.a2.mon2 [MON2] pready=1,prdata=251
# UVM_INFO APB_MON2.sv(25) @ 295: uvm_test_top.env.a2.mon2 [MON2] pready=1,prdata=250
# UVM_INFO APB_MON1.sv(39) @ 305: uvm_test_top.env.a1.mon1 [MON1] pwdata=250,paddr=250,pwrite=1
# UVM_INFO APB_SB.sv(39) @ 305: uvm_test_top.env.sb [SB MISMATCHED] pkt1.prdata=251,pkt2.prdata=250
# UVM_INFO APB_MON2.sv(25) @ 305: uvm_test_top.env.a2.mon2 [MON2] pready=0,prdata=250
# UVM_INFO APB_MON2.sv(25) @ 315: uvm_test_top.env.a2.mon2 [MON2] pready=0,prdata=250
# UVM_INFO APB_MON2.sv(25) @ 325: uvm_test_top.env.a2.mon2 [MON2] pready=1,prdata=250
# UVM_INFO APB_MON1.sv(39) @ 335: uvm_test_top.env.a1.mon1 [MON1] pwdata=249,paddr=249,pwrite=1
# UVM_INFO APB_SB.sv(39) @ 335: uvm_test_top.env.sb [SB MISMATCHED] pkt1.prdata=251,pkt2.prdata=249
# UVM_INFO APB_MON2.sv(25) @ 335: uvm_test_top.env.a2.mon2 [MON2] pready=1,prdata=249
# UVM_INFO APB_MON2.sv(25) @ 345: uvm_test_top.env.a2.mon2 [MON2] pready=0,prdata=249
# UVM_INFO APB_MON2.sv(25) @ 355: uvm_test_top.env.a2.mon2 [MON2] pready=0,prdata=249
# UVM_INFO APB_MON1.sv(39) @ 365: uvm_test_top.env.a1.mon1 [MON1] pwdata=248,paddr=248,pwrite=1
# UVM_INFO APB_SB.sv(39) @ 365: uvm_test_top.env.sb [SB MISMATCHED] pkt1.prdata=251,pkt2.prdata=249
# UVM_INFO APB_MON2.sv(25) @ 365: uvm_test_top.env.a2.mon2 [MON2] pready=1,prdata=249
# UVM_INFO APB_MON2.sv(25) @ 375: uvm_test_top.env.a2.mon2 [MON2] pready=1,prdata=248
# UVM_INFO APB_MON2.sv(25) @ 385: uvm_test_top.env.a2.mon2 [MON2] pready=0,prdata=248
# UVM_INFO APB_MON1.sv(39) @ 395: uvm_test_top.env.a1.mon1 [MON1] pwdata=248,paddr=248,pwrite=0
# UVM_INFO APB_SB.sv(35) @ 395: uvm_test_top.env.sb [SB MATCHED] pkt1.prdata=248,pkt2.prdata=248
# UVM_INFO APB_MON2.sv(25) @ 395: uvm_test_top.env.a2.mon2 [MON2] pready=0,prdata=248
# UVM_INFO APB_MON2.sv(25) @ 405: uvm_test_top.env.a2.mon2 [MON2] pready=1,prdata=248
# UVM_INFO APB_MON2.sv(25) @ 415: uvm_test_top.env.a2.mon2 [MON2] pready=1,prdata=247
# UVM_INFO APB_MON1.sv(39) @ 425: uvm_test_top.env.a1.mon1 [MON1] pwdata=247,paddr=247,pwrite=1
# UVM_INFO APB_SB.sv(39) @ 425: uvm_test_top.env.sb [SB MISMATCHED] pkt1.prdata=248,pkt2.prdata=247
# UVM_INFO APB_MON2.sv(25) @ 425: uvm_test_top.env.a2.mon2 [MON2] pready=0,prdata=247
# UVM_INFO APB_MON2.sv(25) @ 435: uvm_test_top.env.a2.mon2 [MON2] pready=0,prdata=247
# UVM_INFO APB_MON2.sv(25) @ 445: uvm_test_top.env.a2.mon2 [MON2] pready=1,prdata=247
# UVM_INFO APB_MON1.sv(39) @ 455: uvm_test_top.env.a1.mon1 [MON1] pwdata=246,paddr=246,pwrite=1
# UVM_INFO APB_SB.sv(39) @ 455: uvm_test_top.env.sb [SB MISMATCHED] pkt1.prdata=248,pkt2.prdata=246
# UVM_INFO APB_MON2.sv(25) @ 455: uvm_test_top.env.a2.mon2 [MON2] pready=1,prdata=246
# UVM_INFO APB_MON2.sv(25) @ 465: uvm_test_top.env.a2.mon2 [MON2] pready=0,prdata=246
# UVM_INFO APB_MON2.sv(25) @ 475: uvm_test_top.env.a2.mon2 [MON2] pready=0,prdata=246
# UVM_INFO APB_MON1.sv(39) @ 485: uvm_test_top.env.a1.mon1 [MON1] pwdata=245,paddr=245,pwrite=1
# UVM_INFO APB_SB.sv(39) @ 485: uvm_test_top.env.sb [SB MISMATCHED] pkt1.prdata=248,pkt2.prdata=246
# UVM_INFO APB_MON2.sv(25) @ 485: uvm_test_top.env.a2.mon2 [MON2] pready=1,prdata=246
# UVM_INFO APB_MON2.sv(25) @ 495: uvm_test_top.env.a2.mon2 [MON2] pready=1,prdata=245
# UVM_INFO APB_MON2.sv(25) @ 505: uvm_test_top.env.a2.mon2 [MON2] pready=0,prdata=245
# UVM_INFO APB_MON1.sv(39) @ 515: uvm_test_top.env.a1.mon1 [MON1] pwdata=245,paddr=245,pwrite=0
# UVM_INFO APB_SB.sv(35) @ 515: uvm_test_top.env.sb [SB MATCHED] pkt1.prdata=245,pkt2.prdata=245
# UVM_INFO APB_MON2.sv(25) @ 515: uvm_test_top.env.a2.mon2 [MON2] pready=0,prdata=245
# UVM_INFO APB_MON2.sv(25) @ 525: uvm_test_top.env.a2.mon2 [MON2] pready=1,prdata=245
# UVM_INFO APB_MON2.sv(25) @ 535: uvm_test_top.env.a2.mon2 [MON2] pready=1,prdata=244
# UVM_INFO APB_MON1.sv(39) @ 545: uvm_test_top.env.a1.mon1 [MON1] pwdata=244,paddr=244,pwrite=1
# UVM_INFO APB_SB.sv(39) @ 545: uvm_test_top.env.sb [SB MISMATCHED] pkt1.prdata=245,pkt2.prdata=244
# UVM_INFO APB_MON2.sv(25) @ 545: uvm_test_top.env.a2.mon2 [MON2] pready=0,prdata=244
# UVM_INFO APB_MON2.sv(25) @ 555: uvm_test_top.env.a2.mon2 [MON2] pready=0,prdata=244
# UVM_INFO APB_MON2.sv(25) @ 565: uvm_test_top.env.a2.mon2 [MON2] pready=1,prdata=244
# UVM_INFO APB_MON1.sv(39) @ 575: uvm_test_top.env.a1.mon1 [MON1] pwdata=243,paddr=243,pwrite=1
# UVM_INFO APB_SB.sv(39) @ 575: uvm_test_top.env.sb [SB MISMATCHED] pkt1.prdata=245,pkt2.prdata=243
# UVM_INFO APB_MON2.sv(25) @ 575: uvm_test_top.env.a2.mon2 [MON2] pready=1,prdata=243
# UVM_INFO APB_MON2.sv(25) @ 585: uvm_test_top.env.a2.mon2 [MON2] pready=0,prdata=243
# UVM_INFO APB_MON2.sv(25) @ 595: uvm_test_top.env.a2.mon2 [MON2] pready=0,prdata=243
# UVM_INFO APB_MON1.sv(39) @ 605: uvm_test_top.env.a1.mon1 [MON1] pwdata=242,paddr=242,pwrite=1
# UVM_INFO APB_SB.sv(39) @ 605: uvm_test_top.env.sb [SB MISMATCHED] pkt1.prdata=245,pkt2.prdata=243
# UVM_INFO APB_MON2.sv(25) @ 605: uvm_test_top.env.a2.mon2 [MON2] pready=1,prdata=243
# UVM_INFO APB_MON2.sv(25) @ 615: uvm_test_top.env.a2.mon2 [MON2] pready=1,prdata=242
# UVM_INFO APB_MON2.sv(25) @ 625: uvm_test_top.env.a2.mon2 [MON2] pready=0,prdata=242
# UVM_INFO APB_MON1.sv(39) @ 635: uvm_test_top.env.a1.mon1 [MON1] pwdata=242,paddr=242,pwrite=0
# UVM_INFO APB_SB.sv(35) @ 635: uvm_test_top.env.sb [SB MATCHED] pkt1.prdata=242,pkt2.prdata=242
# UVM_INFO APB_MON2.sv(25) @ 635: uvm_test_top.env.a2.mon2 [MON2] pready=0,prdata=242
# UVM_INFO APB_MON2.sv(25) @ 645: uvm_test_top.env.a2.mon2 [MON2] pready=1,prdata=242
# UVM_INFO APB_MON2.sv(25) @ 655: uvm_test_top.env.a2.mon2 [MON2] pready=1,prdata=241
# UVM_INFO APB_MON1.sv(39) @ 665: uvm_test_top.env.a1.mon1 [MON1] pwdata=241,paddr=241,pwrite=1
# UVM_INFO APB_SB.sv(39) @ 665: uvm_test_top.env.sb [SB MISMATCHED] pkt1.prdata=242,pkt2.prdata=241
# UVM_INFO APB_MON2.sv(25) @ 665: uvm_test_top.env.a2.mon2 [MON2] pready=0,prdata=241
# UVM_INFO APB_MON2.sv(25) @ 675: uvm_test_top.env.a2.mon2 [MON2] pready=0,prdata=241
# UVM_INFO APB_MON2.sv(25) @ 685: uvm_test_top.env.a2.mon2 [MON2] pready=1,prdata=241
# UVM_INFO APB_MON1.sv(39) @ 695: uvm_test_top.env.a1.mon1 [MON1] pwdata=240,paddr=240,pwrite=1
# UVM_INFO APB_SB.sv(39) @ 695: uvm_test_top.env.sb [SB MISMATCHED] pkt1.prdata=242,pkt2.prdata=240
# UVM_INFO APB_MON2.sv(25) @ 695: uvm_test_top.env.a2.mon2 [MON2] pready=1,prdata=240
# UVM_INFO APB_MON2.sv(25) @ 705: uvm_test_top.env.a2.mon2 [MON2] pready=0,prdata=240
# UVM_INFO APB_MON2.sv(25) @ 715: uvm_test_top.env.a2.mon2 [MON2] pready=0,prdata=240
# UVM_INFO APB_MON1.sv(39) @ 725: uvm_test_top.env.a1.mon1 [MON1] pwdata=239,paddr=239,pwrite=1
# UVM_INFO APB_SB.sv(39) @ 725: uvm_test_top.env.sb [SB MISMATCHED] pkt1.prdata=242,pkt2.prdata=240
# UVM_INFO APB_MON2.sv(25) @ 725: uvm_test_top.env.a2.mon2 [MON2] pready=1,prdata=240
# UVM_INFO APB_MON2.sv(25) @ 735: uvm_test_top.env.a2.mon2 [MON2] pready=1,prdata=239
# UVM_INFO APB_MON2.sv(25) @ 745: uvm_test_top.env.a2.mon2 [MON2] pready=0,prdata=239
# UVM_INFO APB_MON1.sv(39) @ 755: uvm_test_top.env.a1.mon1 [MON1] pwdata=239,paddr=239,pwrite=0
# UVM_INFO APB_SB.sv(35) @ 755: uvm_test_top.env.sb [SB MATCHED] pkt1.prdata=239,pkt2.prdata=239
# UVM_INFO APB_MON2.sv(25) @ 755: uvm_test_top.env.a2.mon2 [MON2] pready=0,prdata=239
# UVM_INFO APB_MON2.sv(25) @ 765: uvm_test_top.env.a2.mon2 [MON2] pready=1,prdata=239
# UVM_INFO APB_MON2.sv(25) @ 775: uvm_test_top.env.a2.mon2 [MON2] pready=1,prdata=238
# UVM_INFO APB_MON1.sv(39) @ 785: uvm_test_top.env.a1.mon1 [MON1] pwdata=238,paddr=238,pwrite=1
# UVM_INFO APB_SB.sv(39) @ 785: uvm_test_top.env.sb [SB MISMATCHED] pkt1.prdata=239,pkt2.prdata=238
# UVM_INFO APB_MON2.sv(25) @ 785: uvm_test_top.env.a2.mon2 [MON2] pready=0,prdata=238
# UVM_INFO APB_MON2.sv(25) @ 795: uvm_test_top.env.a2.mon2 [MON2] pready=0,prdata=238
# UVM_INFO APB_MON2.sv(25) @ 805: uvm_test_top.env.a2.mon2 [MON2] pready=1,prdata=238
# UVM_INFO APB_MON1.sv(39) @ 815: uvm_test_top.env.a1.mon1 [MON1] pwdata=237,paddr=237,pwrite=1
# UVM_INFO APB_SB.sv(39) @ 815: uvm_test_top.env.sb [SB MISMATCHED] pkt1.prdata=239,pkt2.prdata=237
# UVM_INFO APB_MON2.sv(25) @ 815: uvm_test_top.env.a2.mon2 [MON2] pready=1,prdata=237
# UVM_INFO verilog_src/uvm-1.1d/src/base/uvm_objection.svh(1267) @ 820: reporter [TEST_DONE] 'run' phase is ready to proceed to the 'extract' phase
# 
# --- UVM Report Summary ---
# 
# ** Report counts by severity
# UVM_INFO :  140
# UVM_WARNING :    0
# UVM_ERROR :    0
# UVM_FATAL :    0
# ** Report counts by id
# [MON1]    27
# [MON2]    82
# [Questa UVM]     2
# [RNTST]     1
# [SB MATCHED]     8
# [SB MISMATCHED]    19
# [TEST_DONE]     1
# ** Note: $finish    : C:/questasim64_10.7c/win64/../verilog_src/uvm-1.1d/src/base/uvm_root.svh(430)
#    Time: 820 ns  Iteration: 54  Instance: /apb_top
# 1
# Break in Task uvm_pkg/uvm_root::run_test at C:/questasim64_10.7c/win64/../verilog_src/uvm-1.1d/src/base/uvm_root.svh line 430
coverage report -html -htmldir covhtmlreport -assert -directive -cvg -code bcefst -threshL 50 -threshH 90
# Report created in covhtmlreport/index.html
# End time: 21:16:39 on Dec 18,2024, Elapsed time: 0:04:00
# Errors: 0, Warnings: 5
